
T163C 000:549 SEGGER J-Link V4.98e Log File (0001ms, 0340ms total)
T163C 000:549 DLL Compiled: May  5 2015 11:00:52 (0001ms, 0340ms total)
T163C 000:549 Logging started @ 2016-01-23 16:34 (0001ms, 0340ms total)
T163C 000:550 JLINK_SetWarnOutHandler(...) (0000ms, 0340ms total)
T163C 000:550 JLINK_OpenEx(...)
Firmware: J-Link V9 compiled Apr 21 2015 18:10:40
Hardware: V9.10
S/N: 59106098
Feature(s): GDB, RDI, FlashDL, FlashBP, JFlash  returns O.K. (0323ms, 0663ms total)
T163C 000:873 JLINK_SetErrorOutHandler(...) (0000ms, 0663ms total)
T163C 000:873 JLINK_ExecCommand("ProjectFile = "F:\eb120_code\eb120\eb120\code\bsp\stm32f10x\JLinkSettings.ini"", ...)  returns 0x00 (0001ms, 0664ms total)
T163C 000:881 JLINK_ExecCommand("Device = STM32F103RC", ...)Device "STM32F103RC" selected.  returns 0x00 (0009ms, 0673ms total)
T163C 000:890 JLINK_ExecCommand("DisableConnectionTimeout", ...)  returns 0x01 (0000ms, 0673ms total)
T163C 000:890 JLINK_GetHardwareVersion()  returns 0x16378 (0000ms, 0673ms total)
T163C 000:890 JLINK_GetDLLVersion()  returns 49805 (0000ms, 0673ms total)
T163C 000:890 JLINK_GetFirmwareString(...) (0000ms, 0673ms total)
T163C 000:904 JLINK_GetDLLVersion()  returns 49805 (0000ms, 0673ms total)
T163C 000:904 JLINK_GetCompileDateTime() (0000ms, 0673ms total)
T163C 000:909 JLINK_GetFirmwareString(...) (0000ms, 0673ms total)
T163C 000:914 JLINK_GetHardwareVersion()  returns 0x16378 (0000ms, 0673ms total)
T163C 000:931 JLINK_TIF_Select(JLINKARM_TIF_SWD)  returns 0x00 (0017ms, 0690ms total)
T163C 000:948 JLINK_SetSpeed(50000) (0002ms, 0692ms total)
T163C 000:950 JLINK_GetId() >0x108 TIF>Found SWD-DP with ID 0x1BA01477 >0x0D TIF> >0x28 TIF> >0x0D TIF> >0x28 TIF> >0x0D TIF> >0x21 TIF> >0x0D TIF> >0x28 TIF> >0x0D TIF> >0x28 TIF> >0x0D TIF> >0x28 TIF> >0x0D TIF> >0x21 TIF> >0x0D TIF> >0x21 TIF> >0x0D TIF> >0x28 TIF> >0x0D TIF> >0x21 TIF> >0x0D TIF> >0x21 TIF> >0x108 TIF>Found SWD-DP with ID 0x1BA01477 >0x0D TIF> >0x21 TIF> >0x0D TIF> >0x28 TIF> >0x0D TIF> >0x28 TIF> >0x0D TIF> >0x21 TIF> >0x0D TIF> >0x28 TIF> >0x0D TIF> >0x21 TIF> >0x0D TIF> >0x21 TIF>
 >0x0D TIF> >0x21 TIF> >0x0D TIF> >0x21 TIF> >0x0D TIF> >0x28 TIF> >0x0D TIF> >0x28 TIF> >0x0D TIF> >0x21 TIF> >0x0D TIF> >0x28 TIF> >0x0D TIF> >0x28 TIF> >0x0D TIF> >0x28 TIF> >0x0D TIF> >0x21 TIF> >0x0D TIF> >0x21 TIF> >0x0D TIF> >0x28 TIF> >0x0D TIF> >0x21 TIF> >0x0D TIF> >0x21 TIF>Found Cortex-M3 r1p1, Little endian. -- CPU_WriteMem(4 bytes @ 0xE0002000) -- CPU_ReadMem(4 bytes @ 0xE000EDF0) -- CPU_ReadMem(4 bytes @ 0xE0002000)FPUnit: 6 code (BP) slots and 2 literal slots
 -- CPU_ReadMem(4 bytes @ 0xE000EDFC) -- CPU_ReadMem(4 bytes @ 0xE0001000) -- CPU_WriteMem(4 bytes @ 0xE0001000) -- CPU_ReadMem(4 bytes @ 0xE000ED88) -- CPU_WriteMem(4 bytes @ 0xE000ED88) -- CPU_ReadMem(4 bytes @ 0xE000ED88) -- CPU_WriteMem(4 bytes @ 0xE000ED88)CoreSight components:ROMTbl 0 @ E00FF000 -- CPU_ReadMem(16 bytes @ 0xE00FF000) -- CPU_ReadMem(16 bytes @ 0xE000EFF0) -- CPU_ReadMem(16 bytes @ 0xE000EFE0)ROMTbl 0 [0]: FFF0F000, CID: B105E00D, PID: 001BB000 SCS
 -- CPU_ReadMem(16 bytes @ 0xE0001FF0) -- CPU_ReadMem(16 bytes @ 0xE0001FE0)ROMTbl 0 [1]: FFF02000, CID: B105E00D, PID: 001BB002 DWT -- CPU_ReadMem(16 bytes @ 0xE0002FF0) -- CPU_ReadMem(16 bytes @ 0xE0002FE0)ROMTbl 0 [2]: FFF03000, CID: B105E00D, PID: 000BB003 FPB -- CPU_ReadMem(16 bytes @ 0xE0000FF0) -- CPU_ReadMem(16 bytes @ 0xE0000FE0)ROMTbl 0 [3]: FFF01000, CID: B105E00D, PID: 001BB001 ITM -- CPU_ReadMem(16 bytes @ 0xE00FF010) -- CPU_ReadMem(16 bytes @ 0xE0040FF0)
 -- CPU_ReadMem(16 bytes @ 0xE0040FE0)ROMTbl 0 [4]: FFF41000, CID: B105900D, PID: 001BB923 TPIU-Lite -- CPU_ReadMem(16 bytes @ 0xE0041FF0) -- CPU_ReadMem(16 bytes @ 0xE0041FE0)ROMTbl 0 [5]: FFF42000, CID: B105900D, PID: 101BB924 ETM-M3 >0x0D TIF> >0x21 TIF>  returns 0x1BA01477 (0488ms, 1180ms total)
T163C 001:438 JLINK_GetDLLVersion()  returns 49805 (0000ms, 1180ms total)
T163C 001:438 JLINK_CORE_GetFound()  returns 0x30000FF (0004ms, 1184ms total)
T163C 001:442 JLINK_GetDebugInfo(0x100) -- Value=0xE00FF003  returns 0x00 (0000ms, 1184ms total)
T163C 001:448 JLINK_ReadMem (0xE00FF000, 0x0020 Bytes, ...) -- CPU is running -- CPU_ReadMem(32 bytes @ 0xE00FF000) - Data: 03 F0 F0 FF 03 20 F0 FF 03 30 F0 FF 03 10 F0 FF ...  returns 0x00 (0006ms, 1190ms total)
T163C 001:454 JLINK_ReadMem (0xE000EFF0, 0x0010 Bytes, ...) -- CPU is running -- CPU_ReadMem(16 bytes @ 0xE000EFF0) - Data: 0D 00 00 00 E0 00 00 00 05 00 00 00 B1 00 00 00  returns 0x00 (0005ms, 1195ms total)
T163C 001:459 JLINK_ReadMem (0xE000EFD0, 0x0020 Bytes, ...) -- CPU is running -- CPU_ReadMem(32 bytes @ 0xE000EFD0) - Data: 04 00 00 00 00 00 00 00 00 00 00 00 00 00 00 00 ...  returns 0x00 (0005ms, 1200ms total)
T163C 001:464 JLINK_ReadMem (0xE0001FF0, 0x0010 Bytes, ...) -- CPU is running -- CPU_ReadMem(16 bytes @ 0xE0001FF0) - Data: 0D 00 00 00 E0 00 00 00 05 00 00 00 B1 00 00 00  returns 0x00 (0005ms, 1205ms total)
T163C 001:469 JLINK_ReadMem (0xE0001FD0, 0x0020 Bytes, ...) -- CPU is running -- CPU_ReadMem(32 bytes @ 0xE0001FD0) - Data: 04 00 00 00 00 00 00 00 00 00 00 00 00 00 00 00 ...  returns 0x00 (0005ms, 1210ms total)
T163C 001:474 JLINK_ReadMem (0xE0002FF0, 0x0010 Bytes, ...) -- CPU is running -- CPU_ReadMem(16 bytes @ 0xE0002FF0) - Data: 0D 00 00 00 E0 00 00 00 05 00 00 00 B1 00 00 00  returns 0x00 (0005ms, 1215ms total)
T163C 001:479 JLINK_ReadMem (0xE0002FD0, 0x0020 Bytes, ...) -- CPU is running -- CPU_ReadMem(32 bytes @ 0xE0002FD0) - Data: 04 00 00 00 00 00 00 00 00 00 00 00 00 00 00 00 ...  returns 0x00 (0005ms, 1220ms total)
T163C 001:484 JLINK_ReadMem (0xE0000FF0, 0x0010 Bytes, ...) -- CPU is running -- CPU_ReadMem(16 bytes @ 0xE0000FF0) - Data: 0D 00 00 00 E0 00 00 00 05 00 00 00 B1 00 00 00  returns 0x00 (0005ms, 1225ms total)
T163C 001:489 JLINK_ReadMem (0xE0000FD0, 0x0020 Bytes, ...) -- CPU is running -- CPU_ReadMem(32 bytes @ 0xE0000FD0) - Data: 04 00 00 00 00 00 00 00 00 00 00 00 00 00 00 00 ...  returns 0x00 (0005ms, 1230ms total)
T163C 001:494 JLINK_ReadMem (0xE0040FF0, 0x0010 Bytes, ...) -- CPU is running -- CPU_ReadMem(16 bytes @ 0xE0040FF0) - Data: 0D 00 00 00 90 00 00 00 05 00 00 00 B1 00 00 00  returns 0x00 (0006ms, 1236ms total)
T163C 001:500 JLINK_ReadMem (0xE0040FD0, 0x0020 Bytes, ...) -- CPU is running -- CPU_ReadMem(32 bytes @ 0xE0040FD0) - Data: 04 00 00 00 00 00 00 00 00 00 00 00 00 00 00 00 ...  returns 0x00 (0005ms, 1241ms total)
T163C 001:505 JLINK_ReadMem (0xE0041FF0, 0x0010 Bytes, ...) -- CPU is running -- CPU_ReadMem(16 bytes @ 0xE0041FF0) - Data: 0D 00 00 00 90 00 00 00 05 00 00 00 B1 00 00 00  returns 0x00 (0005ms, 1246ms total)
T163C 001:510 JLINK_ReadMem (0xE0041FD0, 0x0020 Bytes, ...) -- CPU is running -- CPU_ReadMem(32 bytes @ 0xE0041FD0) - Data: 04 00 00 00 00 00 00 00 00 00 00 00 00 00 00 00 ...  returns 0x00 (0005ms, 1251ms total)
T163C 001:515 JLINK_ReadMemU32(0xE000ED00, 0x0001 Items, ...) -- CPU is running -- CPU_ReadMem(4 bytes @ 0xE000ED00) - Data: 31 C2 1F 41  returns 0x01 (0005ms, 1256ms total)
T163C 001:520 JLINK_SetResetType(JLINKARM_RESET_TYPE_NORMAL)  returns JLINKARM_RESET_TYPE_NORMAL (0000ms, 1256ms total)
T163C 001:520 JLINK_Reset() -- CPU is running -- CPU_WriteMem(4 bytes @ 0xE000EDF0) -- CPU is running -- CPU_WriteMem(4 bytes @ 0xE000EDFC) >0x35 TIF> -- CPU is running -- CPU_WriteMem(4 bytes @ 0xE000ED0C) -- CPU is running -- CPU_ReadMem(4 bytes @ 0xE000EDF0) -- CPU is running -- CPU_ReadMem(4 bytes @ 0xE000EDF0) -- CPU is running -- CPU_WriteMem(4 bytes @ 0xE000EDF0) -- CPU is running -- CPU_WriteMem(4 bytes @ 0xE000EDFC) -- CPU is running -- CPU_ReadMem(4 bytes @ 0xE000EDF0)
 -- CPU_WriteMem(4 bytes @ 0xE0002000) -- CPU_ReadMem(4 bytes @ 0xE000EDFC) -- CPU_ReadMem(4 bytes @ 0xE0001000) (0076ms, 1332ms total)
T163C 001:596 JLINK_Halt()  returns 0x00 (0000ms, 1332ms total)
T163C 001:596 JLINK_IsHalted()  returns TRUE (0000ms, 1332ms total)
T163C 001:596 JLINK_ReadMemU32(0xE000EDF0, 0x0001 Items, ...) -- CPU_ReadMem(4 bytes @ 0xE000EDF0) - Data: 03 00 03 00  returns 0x01 (0005ms, 1337ms total)
T163C 001:601 JLINK_WriteU32(0xE000EDF0, 0xA05F0003) -- CPU_WriteMem(4 bytes @ 0xE000EDF0)  returns 0x00 (0005ms, 1342ms total)
T163C 001:606 JLINK_WriteU32(0xE000EDFC, 0x01000000) -- CPU_WriteMem(4 bytes @ 0xE000EDFC)  returns 0x00 (0005ms, 1347ms total)
T163C 001:629 JLINK_GetHWStatus(...)  returns 0x00 (0005ms, 1352ms total)
T163C 001:646 JLINK_GetNumBPUnits(Type = 0xFFFFFF00)  returns 0x06 (0000ms, 1352ms total)
T163C 001:646 JLINK_GetNumBPUnits(Type = 0xF0)  returns 0x2000 (0000ms, 1352ms total)
T163C 001:646 JLINK_GetNumWPUnits()  returns 0x04 (0001ms, 1353ms total)
T163C 001:658 JLINK_GetSpeed()  returns 0x2EE0 (0000ms, 1353ms total)
T163C 001:669 JLINK_ReadMemU32(0xE000E004, 0x0001 Items, ...) -- CPU_ReadMem(4 bytes @ 0xE000E004) - Data: 01 00 00 00  returns 0x01 (0005ms, 1358ms total)
T163C 001:674 JLINK_ReadMemU32(0xE000E004, 0x0001 Items, ...) -- CPU_ReadMem(4 bytes @ 0xE000E004) - Data: 01 00 00 00  returns 0x01 (0005ms, 1363ms total)
T163C 001:679 JLINK_WriteMem(0xE0001000, 0x001C Bytes, ...) - Data: 01 00 00 00 00 00 00 00 00 00 00 00 00 00 00 00 ... -- CPU_WriteMem(28 bytes @ 0xE0001000)  returns 0x1C (0006ms, 1369ms total)
T163C 001:685 JLINK_ReadMem (0xE0001000, 0x001C Bytes, ...) -- CPU_ReadMem(28 bytes @ 0xE0001000) - Data: 01 00 00 40 00 00 00 00 00 00 00 00 00 00 00 00 ...  returns 0x00 (0005ms, 1374ms total)
T163C 001:690 JLINK_Halt()  returns 0x00 (0000ms, 1374ms total)
T163C 001:690 JLINK_IsHalted()  returns TRUE (0000ms, 1374ms total)
T163C 001:693 JLINK_WriteMem(0x20000000, 0x0164 Bytes, ...) - Data: 00 BE 0A E0 0D 78 2D 06 68 40 08 24 40 00 00 D3 ... -- CPU_WriteMem(356 bytes @ 0x20000000)  returns 0x164 (0006ms, 1380ms total)
T163C 001:699 JLINK_WriteReg(R0, 0x08000000)  returns 0x00 (0000ms, 1380ms total)
T163C 001:699 JLINK_WriteReg(R1, 0x007A1200)  returns 0x00 (0000ms, 1380ms total)
T163C 001:699 JLINK_WriteReg(R2, 0x00000001)  returns 0x00 (0000ms, 1380ms total)
T163C 001:699 JLINK_WriteReg(R3, 0x00000000)  returns 0x00 (0000ms, 1380ms total)
T163C 001:699 JLINK_WriteReg(R4, 0x00000000)  returns 0x00 (0000ms, 1380ms total)
T163C 001:699 JLINK_WriteReg(R5, 0x00000000)  returns 0x00 (0000ms, 1380ms total)
T163C 001:699 JLINK_WriteReg(R6, 0x00000000)  returns 0x00 (0001ms, 1381ms total)
T163C 001:700 JLINK_WriteReg(R7, 0x00000000)  returns 0x00 (0000ms, 1381ms total)
T163C 001:700 JLINK_WriteReg(R8, 0x00000000)  returns 0x00 (0000ms, 1381ms total)
T163C 001:700 JLINK_WriteReg(R9, 0x20000160)  returns 0x00 (0000ms, 1381ms total)
T163C 001:700 JLINK_WriteReg(R10, 0x00000000)  returns 0x00 (0000ms, 1381ms total)
T163C 001:700 JLINK_WriteReg(R11, 0x00000000)  returns 0x00 (0000ms, 1381ms total)
T163C 001:700 JLINK_WriteReg(R12, 0x00000000)  returns 0x00 (0000ms, 1381ms total)
T163C 001:700 JLINK_WriteReg(R13 (SP), 0x20001000)  returns 0x00 (0000ms, 1381ms total)
T163C 001:700 JLINK_WriteReg(R14, 0x20000001)  returns 0x00 (0000ms, 1381ms total)
T163C 001:700 JLINK_WriteReg(R15 (PC), 0x20000038)  returns 0x00 (0000ms, 1381ms total)
T163C 001:700 JLINK_WriteReg(XPSR, 0x01000000)  returns 0x00 (0000ms, 1381ms total)
T163C 001:701 JLINK_WriteReg(MSP, 0x20001000)  returns 0x00 (0000ms, 1381ms total)
T163C 001:701 JLINK_WriteReg(PSP, 0x20001000)  returns 0x00 (0000ms, 1381ms total)
T163C 001:701 JLINK_WriteReg(CFBP, 0x00000000)  returns 0x00 (0000ms, 1381ms total)
T163C 001:701 JLINK_SetBPEx(Addr = 0x20000000, Type = 0xFFFFFFF2) -- CPU_ReadMem(2 bytes @ 0x20000000)  returns 0x00000001 (0005ms, 1386ms total)
T163C 001:706 JLINK_Go() -- CPU_WriteMem(2 bytes @ 0x20000000) -- CPU_ReadMem(4 bytes @ 0xE0001000) -- CPU_WriteMem(4 bytes @ 0xE0002008) -- CPU_WriteMem(4 bytes @ 0xE000200C) -- CPU_WriteMem(4 bytes @ 0xE0002010) -- CPU_WriteMem(4 bytes @ 0xE0002014) -- CPU_WriteMem(4 bytes @ 0xE0002018) -- CPU_WriteMem(4 bytes @ 0xE000201C) -- CPU_WriteMem(4 bytes @ 0xE0001004) (0030ms, 1416ms total)
T163C 001:736 JLINK_IsHalted() -- CPU_ReadMem(2 bytes @ 0x20000000)  returns TRUE (0014ms, 1430ms total)
T163C 001:750 JLINK_ReadReg(R15 (PC))  returns 0x20000000 (0000ms, 1416ms total)
T163C 001:750 JLINK_ClrBPEx(BPHandle = 0x00000001)  returns 0x00 (0000ms, 1416ms total)
T163C 001:750 JLINK_ReadReg(R0)  returns 0x00000000 (0000ms, 1416ms total)
T163C 001:751 JLINK_WriteReg(R0, 0x08000000)  returns 0x00 (0000ms, 1416ms total)
T163C 001:751 JLINK_WriteReg(R1, 0x007A1200)  returns 0x00 (0000ms, 1416ms total)
T163C 001:751 JLINK_WriteReg(R2, 0x00000001)  returns 0x00 (0000ms, 1416ms total)
T163C 001:751 JLINK_WriteReg(R3, 0x00000000)  returns 0x00 (0000ms, 1416ms total)
T163C 001:751 JLINK_WriteReg(R4, 0x00000000)  returns 0x00 (0000ms, 1416ms total)
T163C 001:751 JLINK_WriteReg(R5, 0x00000000)  returns 0x00 (0000ms, 1416ms total)
T163C 001:752 JLINK_WriteReg(R6, 0x00000000)  returns 0x00 (0000ms, 1417ms total)
T163C 001:752 JLINK_WriteReg(R7, 0x00000000)  returns 0x00 (0000ms, 1417ms total)
T163C 001:752 JLINK_WriteReg(R8, 0x00000000)  returns 0x00 (0000ms, 1417ms total)
T163C 001:752 JLINK_WriteReg(R9, 0x20000160)  returns 0x00 (0000ms, 1417ms total)
T163C 001:752 JLINK_WriteReg(R10, 0x00000000)  returns 0x00 (0000ms, 1417ms total)
T163C 001:752 JLINK_WriteReg(R11, 0x00000000)  returns 0x00 (0000ms, 1417ms total)
T163C 001:752 JLINK_WriteReg(R12, 0x00000000)  returns 0x00 (0000ms, 1417ms total)
T163C 001:752 JLINK_WriteReg(R13 (SP), 0x20001000)  returns 0x00 (0000ms, 1417ms total)
T163C 001:752 JLINK_WriteReg(R14, 0x20000001)  returns 0x00 (0000ms, 1417ms total)
T163C 001:752 JLINK_WriteReg(R15 (PC), 0x2000007C)  returns 0x00 (0000ms, 1417ms total)
T163C 001:752 JLINK_WriteReg(XPSR, 0x01000000)  returns 0x00 (0000ms, 1417ms total)
T163C 001:752 JLINK_WriteReg(MSP, 0x20001000)  returns 0x00 (0000ms, 1417ms total)
T163C 001:752 JLINK_WriteReg(PSP, 0x20001000)  returns 0x00 (0000ms, 1417ms total)
T163C 001:752 JLINK_WriteReg(CFBP, 0x00000000)  returns 0x00 (0001ms, 1418ms total)
T163C 001:753 JLINK_SetBPEx(Addr = 0x20000000, Type = 0xFFFFFFF2)  returns 0x00000002 (0000ms, 1418ms total)
T163C 001:753 JLINK_Go() -- CPU_ReadMem(4 bytes @ 0xE0001000) (0015ms, 1433ms total)
T163C 001:768 JLINK_IsHalted()  returns FALSE (0005ms, 1438ms total)
T163C 001:813 JLINK_IsHalted() -- CPU_ReadMem(2 bytes @ 0x20000000)  returns TRUE (0014ms, 1447ms total)
T163C 001:827 JLINK_ReadReg(R15 (PC))  returns 0x20000000 (0001ms, 1434ms total)
T163C 001:828 JLINK_ClrBPEx(BPHandle = 0x00000002)  returns 0x00 (0000ms, 1434ms total)
T163C 001:828 JLINK_ReadReg(R0)  returns 0x00000000 (0000ms, 1434ms total)
T163C 001:878 JLINK_WriteReg(R0, 0x00000001)  returns 0x00 (0001ms, 1435ms total)
T163C 001:879 JLINK_WriteReg(R1, 0x007A1200)  returns 0x00 (0000ms, 1435ms total)
T163C 001:879 JLINK_WriteReg(R2, 0x00000001)  returns 0x00 (0000ms, 1435ms total)
T163C 001:879 JLINK_WriteReg(R3, 0x00000000)  returns 0x00 (0000ms, 1435ms total)
T163C 001:879 JLINK_WriteReg(R4, 0x00000000)  returns 0x00 (0000ms, 1435ms total)
T163C 001:879 JLINK_WriteReg(R5, 0x00000000)  returns 0x00 (0000ms, 1435ms total)
T163C 001:879 JLINK_WriteReg(R6, 0x00000000)  returns 0x00 (0000ms, 1435ms total)
T163C 001:879 JLINK_WriteReg(R7, 0x00000000)  returns 0x00 (0000ms, 1435ms total)
T163C 001:879 JLINK_WriteReg(R8, 0x00000000)  returns 0x00 (0000ms, 1435ms total)
T163C 001:879 JLINK_WriteReg(R9, 0x20000160)  returns 0x00 (0000ms, 1435ms total)
T163C 001:879 JLINK_WriteReg(R10, 0x00000000)  returns 0x00 (0001ms, 1436ms total)
T163C 001:880 JLINK_WriteReg(R11, 0x00000000)  returns 0x00 (0000ms, 1436ms total)
T163C 001:880 JLINK_WriteReg(R12, 0x00000000)  returns 0x00 (0000ms, 1436ms total)
T163C 001:880 JLINK_WriteReg(R13 (SP), 0x20001000)  returns 0x00 (0000ms, 1436ms total)
T163C 001:880 JLINK_WriteReg(R14, 0x20000001)  returns 0x00 (0000ms, 1436ms total)
T163C 001:880 JLINK_WriteReg(R15 (PC), 0x2000006A)  returns 0x00 (0000ms, 1436ms total)
T163C 001:880 JLINK_WriteReg(XPSR, 0x01000000)  returns 0x00 (0000ms, 1436ms total)
T163C 001:880 JLINK_WriteReg(MSP, 0x20001000)  returns 0x00 (0000ms, 1436ms total)
T163C 001:880 JLINK_WriteReg(PSP, 0x20001000)  returns 0x00 (0000ms, 1436ms total)
T163C 001:880 JLINK_WriteReg(CFBP, 0x00000000)  returns 0x00 (0000ms, 1436ms total)
T163C 001:880 JLINK_SetBPEx(Addr = 0x20000000, Type = 0xFFFFFFF2)  returns 0x00000003 (0001ms, 1437ms total)
T163C 001:881 JLINK_Go() -- CPU_ReadMem(4 bytes @ 0xE0001000) (0014ms, 1451ms total)
T163C 001:895 JLINK_IsHalted() -- CPU_ReadMem(2 bytes @ 0x20000000)  returns TRUE (0015ms, 1466ms total)
T163C 001:910 JLINK_ReadReg(R15 (PC))  returns 0x20000000 (0000ms, 1451ms total)
T163C 001:910 JLINK_ClrBPEx(BPHandle = 0x00000003)  returns 0x00 (0000ms, 1451ms total)
T163C 001:910 JLINK_ReadReg(R0)  returns 0x00000000 (0000ms, 1451ms total)
T163C 001:917 JLINK_WriteMem(0x20000000, 0x0164 Bytes, ...) - Data: 00 BE 0A E0 0D 78 2D 06 68 40 08 24 40 00 00 D3 ... -- CPU_WriteMem(356 bytes @ 0x20000000)  returns 0x164 (0006ms, 1457ms total)
T163C 001:923 JLINK_WriteReg(R0, 0x08000000)  returns 0x00 (0000ms, 1457ms total)
T163C 001:923 JLINK_WriteReg(R1, 0x007A1200)  returns 0x00 (0000ms, 1457ms total)
T163C 001:923 JLINK_WriteReg(R2, 0x00000002)  returns 0x00 (0000ms, 1457ms total)
T163C 001:923 JLINK_WriteReg(R3, 0x00000000)  returns 0x00 (0000ms, 1457ms total)
T163C 001:923 JLINK_WriteReg(R4, 0x00000000)  returns 0x00 (0000ms, 1457ms total)
T163C 001:923 JLINK_WriteReg(R5, 0x00000000)  returns 0x00 (0000ms, 1457ms total)
T163C 001:923 JLINK_WriteReg(R6, 0x00000000)  returns 0x00 (0000ms, 1457ms total)
T163C 001:923 JLINK_WriteReg(R7, 0x00000000)  returns 0x00 (0000ms, 1457ms total)
T163C 001:923 JLINK_WriteReg(R8, 0x00000000)  returns 0x00 (0000ms, 1457ms total)
T163C 001:923 JLINK_WriteReg(R9, 0x20000160)  returns 0x00 (0000ms, 1457ms total)
T163C 001:923 JLINK_WriteReg(R10, 0x00000000)  returns 0x00 (0000ms, 1457ms total)
T163C 001:924 JLINK_WriteReg(R11, 0x00000000)  returns 0x00 (0000ms, 1458ms total)
T163C 001:924 JLINK_WriteReg(R12, 0x00000000)  returns 0x00 (0000ms, 1458ms total)
T163C 001:924 JLINK_WriteReg(R13 (SP), 0x20001000)  returns 0x00 (0000ms, 1458ms total)
T163C 001:924 JLINK_WriteReg(R14, 0x20000001)  returns 0x00 (0000ms, 1458ms total)
T163C 001:924 JLINK_WriteReg(R15 (PC), 0x20000038)  returns 0x00 (0000ms, 1458ms total)
T163C 001:924 JLINK_WriteReg(XPSR, 0x01000000)  returns 0x00 (0000ms, 1458ms total)
T163C 001:924 JLINK_WriteReg(MSP, 0x20001000)  returns 0x00 (0000ms, 1458ms total)
T163C 001:924 JLINK_WriteReg(PSP, 0x20001000)  returns 0x00 (0000ms, 1458ms total)
T163C 001:924 JLINK_WriteReg(CFBP, 0x00000000)  returns 0x00 (0000ms, 1458ms total)
T163C 001:924 JLINK_SetBPEx(Addr = 0x20000000, Type = 0xFFFFFFF2) -- CPU_ReadMem(2 bytes @ 0x20000000)  returns 0x00000004 (0005ms, 1463ms total)
T163C 001:929 JLINK_Go() -- CPU_WriteMem(2 bytes @ 0x20000000) -- CPU_ReadMem(4 bytes @ 0xE0001000) (0020ms, 1483ms total)
T163C 001:949 JLINK_IsHalted() -- CPU_ReadMem(2 bytes @ 0x20000000)  returns TRUE (0015ms, 1498ms total)
T163C 001:964 JLINK_ReadReg(R15 (PC))  returns 0x20000000 (0000ms, 1483ms total)
T163C 001:964 JLINK_ClrBPEx(BPHandle = 0x00000004)  returns 0x00 (0000ms, 1483ms total)
T163C 001:964 JLINK_ReadReg(R0)  returns 0x00000000 (0000ms, 1483ms total)
T163C 001:965 JLINK_WriteMem(0x20000164, 0x0400 Bytes, ...) - Data: C0 34 00 20 45 01 00 08 B1 1F 00 08 0F 02 00 08 ... -- CPU_WriteMem(1024 bytes @ 0x20000164)  returns 0x400 (0006ms, 1490ms total)
T163C 001:972 JLINK_WriteReg(R0, 0x08000000)  returns 0x00 (0000ms, 1491ms total)
T163C 001:972 JLINK_WriteReg(R1, 0x00000400)  returns 0x00 (0000ms, 1491ms total)
T163C 001:972 JLINK_WriteReg(R2, 0x20000164)  returns 0x00 (0000ms, 1491ms total)
T163C 001:972 JLINK_WriteReg(R3, 0x00000000)  returns 0x00 (0000ms, 1491ms total)
T163C 001:972 JLINK_WriteReg(R4, 0x00000000)  returns 0x00 (0000ms, 1491ms total)
T163C 001:972 JLINK_WriteReg(R5, 0x00000000)  returns 0x00 (0000ms, 1491ms total)
T163C 001:972 JLINK_WriteReg(R6, 0x00000000)  returns 0x00 (0000ms, 1491ms total)
T163C 001:972 JLINK_WriteReg(R7, 0x00000000)  returns 0x00 (0000ms, 1491ms total)
T163C 001:972 JLINK_WriteReg(R8, 0x00000000)  returns 0x00 (0000ms, 1491ms total)
T163C 001:972 JLINK_WriteReg(R9, 0x20000160)  returns 0x00 (0000ms, 1491ms total)
T163C 001:972 JLINK_WriteReg(R10, 0x00000000)  returns 0x00 (0000ms, 1491ms total)
T163C 001:972 JLINK_WriteReg(R11, 0x00000000)  returns 0x00 (0000ms, 1491ms total)
T163C 001:972 JLINK_WriteReg(R12, 0x00000000)  returns 0x00 (0000ms, 1491ms total)
T163C 001:972 JLINK_WriteReg(R13 (SP), 0x20001000)  returns 0x00 (0000ms, 1491ms total)
T163C 001:972 JLINK_WriteReg(R14, 0x20000001)  returns 0x00 (0001ms, 1492ms total)
T163C 001:973 JLINK_WriteReg(R15 (PC), 0x200000F4)  returns 0x00 (0000ms, 1492ms total)
T163C 001:973 JLINK_WriteReg(XPSR, 0x01000000)  returns 0x00 (0000ms, 1492ms total)
T163C 001:973 JLINK_WriteReg(MSP, 0x20001000)  returns 0x00 (0000ms, 1492ms total)
T163C 001:973 JLINK_WriteReg(PSP, 0x20001000)  returns 0x00 (0000ms, 1492ms total)
T163C 001:973 JLINK_WriteReg(CFBP, 0x00000000)  returns 0x00 (0000ms, 1492ms total)
T163C 001:973 JLINK_SetBPEx(Addr = 0x20000000, Type = 0xFFFFFFF2)  returns 0x00000005 (0000ms, 1492ms total)
T163C 001:973 JLINK_Go() -- CPU_ReadMem(4 bytes @ 0xE0001000) (0015ms, 1507ms total)
T163C 001:988 JLINK_IsHalted()  returns FALSE (0005ms, 1512ms total)
T163C 002:004 JLINK_IsHalted()  returns FALSE (0005ms, 1512ms total)
T163C 002:011 JLINK_IsHalted()  returns FALSE (0005ms, 1512ms total)
T163C 002:017 JLINK_IsHalted() -- CPU_ReadMem(2 bytes @ 0x20000000)  returns TRUE (0014ms, 1521ms total)
T163C 002:031 JLINK_ReadReg(R15 (PC))  returns 0x20000000 (0000ms, 1507ms total)
T163C 002:031 JLINK_ClrBPEx(BPHandle = 0x00000005)  returns 0x00 (0000ms, 1507ms total)
T163C 002:031 JLINK_ReadReg(R0)  returns 0x00000000 (0000ms, 1507ms total)
T163C 002:032 JLINK_WriteMem(0x20000164, 0x0400 Bytes, ...) - Data: 10 2D 07 D1 00 27 10 25 14 F8 01 0B 02 E0 08 25 ... -- CPU_WriteMem(1024 bytes @ 0x20000164)  returns 0x400 (0006ms, 1513ms total)
T163C 002:038 JLINK_WriteReg(R0, 0x08000400)  returns 0x00 (0001ms, 1514ms total)
T163C 002:039 JLINK_WriteReg(R1, 0x00000400)  returns 0x00 (0000ms, 1514ms total)
T163C 002:039 JLINK_WriteReg(R2, 0x20000164)  returns 0x00 (0000ms, 1514ms total)
T163C 002:039 JLINK_WriteReg(R3, 0x00000000)  returns 0x00 (0000ms, 1514ms total)
T163C 002:039 JLINK_WriteReg(R4, 0x00000000)  returns 0x00 (0000ms, 1514ms total)
T163C 002:039 JLINK_WriteReg(R5, 0x00000000)  returns 0x00 (0000ms, 1514ms total)
T163C 002:039 JLINK_WriteReg(R6, 0x00000000)  returns 0x00 (0000ms, 1514ms total)
T163C 002:039 JLINK_WriteReg(R7, 0x00000000)  returns 0x00 (0000ms, 1514ms total)
T163C 002:039 JLINK_WriteReg(R8, 0x00000000)  returns 0x00 (0000ms, 1514ms total)
T163C 002:039 JLINK_WriteReg(R9, 0x20000160)  returns 0x00 (0000ms, 1514ms total)
T163C 002:039 JLINK_WriteReg(R10, 0x00000000)  returns 0x00 (0000ms, 1514ms total)
T163C 002:039 JLINK_WriteReg(R11, 0x00000000)  returns 0x00 (0000ms, 1514ms total)
T163C 002:039 JLINK_WriteReg(R12, 0x00000000)  returns 0x00 (0000ms, 1514ms total)
T163C 002:039 JLINK_WriteReg(R13 (SP), 0x20001000)  returns 0x00 (0000ms, 1514ms total)
T163C 002:039 JLINK_WriteReg(R14, 0x20000001)  returns 0x00 (0000ms, 1514ms total)
T163C 002:039 JLINK_WriteReg(R15 (PC), 0x200000F4)  returns 0x00 (0000ms, 1514ms total)
T163C 002:039 JLINK_WriteReg(XPSR, 0x01000000)  returns 0x00 (0001ms, 1515ms total)
T163C 002:040 JLINK_WriteReg(MSP, 0x20001000)  returns 0x00 (0000ms, 1515ms total)
T163C 002:040 JLINK_WriteReg(PSP, 0x20001000)  returns 0x00 (0000ms, 1515ms total)
T163C 002:040 JLINK_WriteReg(CFBP, 0x00000000)  returns 0x00 (0000ms, 1515ms total)
T163C 002:040 JLINK_SetBPEx(Addr = 0x20000000, Type = 0xFFFFFFF2)  returns 0x00000006 (0000ms, 1515ms total)
T163C 002:040 JLINK_Go() -- CPU_ReadMem(4 bytes @ 0xE0001000) (0014ms, 1529ms total)
T163C 002:054 JLINK_IsHalted()  returns FALSE (0004ms, 1533ms total)
T163C 002:060 JLINK_IsHalted()  returns FALSE (0005ms, 1534ms total)
T163C 002:066 JLINK_IsHalted()  returns FALSE (0005ms, 1534ms total)
T163C 002:072 JLINK_IsHalted()  returns FALSE (0004ms, 1533ms total)
T163C 002:077 JLINK_IsHalted()  returns FALSE (0004ms, 1533ms total)
T163C 002:083 JLINK_IsHalted() -- CPU_ReadMem(2 bytes @ 0x20000000)  returns TRUE (0014ms, 1543ms total)
T163C 002:097 JLINK_ReadReg(R15 (PC))  returns 0x20000000 (0000ms, 1529ms total)
T163C 002:097 JLINK_ClrBPEx(BPHandle = 0x00000006)  returns 0x00 (0000ms, 1529ms total)
T163C 002:097 JLINK_ReadReg(R0)  returns 0x00000000 (0000ms, 1529ms total)
T163C 002:097 JLINK_WriteMem(0x20000164, 0x0400 Bytes, ...) - Data: B0 F5 20 2F 03 D0 A0 68 B0 F5 40 2F 00 D1 03 E0 ... -- CPU_WriteMem(1024 bytes @ 0x20000164)  returns 0x400 (0007ms, 1536ms total)
T163C 002:104 JLINK_WriteReg(R0, 0x08000800)  returns 0x00 (0000ms, 1536ms total)
T163C 002:104 JLINK_WriteReg(R1, 0x00000400)  returns 0x00 (0000ms, 1536ms total)
T163C 002:104 JLINK_WriteReg(R2, 0x20000164)  returns 0x00 (0001ms, 1537ms total)
T163C 002:105 JLINK_WriteReg(R3, 0x00000000)  returns 0x00 (0000ms, 1537ms total)
T163C 002:105 JLINK_WriteReg(R4, 0x00000000)  returns 0x00 (0000ms, 1537ms total)
T163C 002:105 JLINK_WriteReg(R5, 0x00000000)  returns 0x00 (0000ms, 1537ms total)
T163C 002:105 JLINK_WriteReg(R6, 0x00000000)  returns 0x00 (0000ms, 1537ms total)
T163C 002:105 JLINK_WriteReg(R7, 0x00000000)  returns 0x00 (0000ms, 1537ms total)
T163C 002:105 JLINK_WriteReg(R8, 0x00000000)  returns 0x00 (0000ms, 1537ms total)
T163C 002:105 JLINK_WriteReg(R9, 0x20000160)  returns 0x00 (0000ms, 1537ms total)
T163C 002:105 JLINK_WriteReg(R10, 0x00000000)  returns 0x00 (0000ms, 1537ms total)
T163C 002:105 JLINK_WriteReg(R11, 0x00000000)  returns 0x00 (0000ms, 1537ms total)
T163C 002:105 JLINK_WriteReg(R12, 0x00000000)  returns 0x00 (0000ms, 1537ms total)
T163C 002:105 JLINK_WriteReg(R13 (SP), 0x20001000)  returns 0x00 (0000ms, 1537ms total)
T163C 002:105 JLINK_WriteReg(R14, 0x20000001)  returns 0x00 (0000ms, 1537ms total)
T163C 002:105 JLINK_WriteReg(R15 (PC), 0x200000F4)  returns 0x00 (0000ms, 1537ms total)
T163C 002:105 JLINK_WriteReg(XPSR, 0x01000000)  returns 0x00 (0000ms, 1537ms total)
T163C 002:105 JLINK_WriteReg(MSP, 0x20001000)  returns 0x00 (0001ms, 1538ms total)
T163C 002:106 JLINK_WriteReg(PSP, 0x20001000)  returns 0x00 (0000ms, 1538ms total)
T163C 002:106 JLINK_WriteReg(CFBP, 0x00000000)  returns 0x00 (0000ms, 1538ms total)
T163C 002:106 JLINK_SetBPEx(Addr = 0x20000000, Type = 0xFFFFFFF2)  returns 0x00000007 (0000ms, 1538ms total)
T163C 002:106 JLINK_Go() -- CPU_ReadMem(4 bytes @ 0xE0001000) (0015ms, 1553ms total)
T163C 002:121 JLINK_IsHalted()  returns FALSE (0005ms, 1558ms total)
T163C 002:140 JLINK_IsHalted()  returns FALSE (0005ms, 1558ms total)
T163C 002:146 JLINK_IsHalted()  returns FALSE (0005ms, 1558ms total)
T163C 002:152 JLINK_IsHalted() -- CPU_ReadMem(2 bytes @ 0x20000000)  returns TRUE (0015ms, 1568ms total)
T163C 002:167 JLINK_ReadReg(R15 (PC))  returns 0x20000000 (0000ms, 1553ms total)
T163C 002:167 JLINK_ClrBPEx(BPHandle = 0x00000007)  returns 0x00 (0000ms, 1553ms total)
T163C 002:167 JLINK_ReadReg(R0)  returns 0x00000000 (0000ms, 1553ms total)
T163C 002:168 JLINK_WriteMem(0x20000164, 0x0400 Bytes, ...) - Data: 31 30 78 5F 53 74 64 50 65 72 69 70 68 5F 44 72 ... -- CPU_WriteMem(1024 bytes @ 0x20000164)  returns 0x400 (0007ms, 1560ms total)
T163C 002:175 JLINK_WriteReg(R0, 0x08000C00)  returns 0x00 (0000ms, 1560ms total)
T163C 002:175 JLINK_WriteReg(R1, 0x00000400)  returns 0x00 (0000ms, 1560ms total)
T163C 002:175 JLINK_WriteReg(R2, 0x20000164)  returns 0x00 (0000ms, 1560ms total)
T163C 002:175 JLINK_WriteReg(R3, 0x00000000)  returns 0x00 (0000ms, 1560ms total)
T163C 002:175 JLINK_WriteReg(R4, 0x00000000)  returns 0x00 (0000ms, 1560ms total)
T163C 002:175 JLINK_WriteReg(R5, 0x00000000)  returns 0x00 (0000ms, 1560ms total)
T163C 002:175 JLINK_WriteReg(R6, 0x00000000)  returns 0x00 (0000ms, 1560ms total)
T163C 002:175 JLINK_WriteReg(R7, 0x00000000)  returns 0x00 (0000ms, 1560ms total)
T163C 002:175 JLINK_WriteReg(R8, 0x00000000)  returns 0x00 (0000ms, 1560ms total)
T163C 002:175 JLINK_WriteReg(R9, 0x20000160)  returns 0x00 (0000ms, 1560ms total)
T163C 002:175 JLINK_WriteReg(R10, 0x00000000)  returns 0x00 (0000ms, 1560ms total)
T163C 002:175 JLINK_WriteReg(R11, 0x00000000)  returns 0x00 (0000ms, 1560ms total)
T163C 002:175 JLINK_WriteReg(R12, 0x00000000)  returns 0x00 (0000ms, 1560ms total)
T163C 002:175 JLINK_WriteReg(R13 (SP), 0x20001000)  returns 0x00 (0000ms, 1560ms total)
T163C 002:175 JLINK_WriteReg(R14, 0x20000001)  returns 0x00 (0001ms, 1561ms total)
T163C 002:176 JLINK_WriteReg(R15 (PC), 0x200000F4)  returns 0x00 (0000ms, 1561ms total)
T163C 002:176 JLINK_WriteReg(XPSR, 0x01000000)  returns 0x00 (0000ms, 1561ms total)
T163C 002:176 JLINK_WriteReg(MSP, 0x20001000)  returns 0x00 (0000ms, 1561ms total)
T163C 002:176 JLINK_WriteReg(PSP, 0x20001000)  returns 0x00 (0000ms, 1561ms total)
T163C 002:176 JLINK_WriteReg(CFBP, 0x00000000)  returns 0x00 (0000ms, 1561ms total)
T163C 002:176 JLINK_SetBPEx(Addr = 0x20000000, Type = 0xFFFFFFF2)  returns 0x00000008 (0000ms, 1561ms total)
T163C 002:176 JLINK_Go() -- CPU_ReadMem(4 bytes @ 0xE0001000) (0014ms, 1575ms total)
T163C 002:190 JLINK_IsHalted()  returns FALSE (0005ms, 1580ms total)
T163C 002:201 JLINK_IsHalted()  returns FALSE (0005ms, 1580ms total)
T163C 002:207 JLINK_IsHalted()  returns FALSE (0005ms, 1580ms total)
T163C 002:215 JLINK_IsHalted()  returns FALSE (0005ms, 1580ms total)
T163C 002:221 JLINK_IsHalted() -- CPU_ReadMem(2 bytes @ 0x20000000)  returns TRUE (0015ms, 1590ms total)
T163C 002:236 JLINK_ReadReg(R15 (PC))  returns 0x20000000 (0000ms, 1575ms total)
T163C 002:236 JLINK_ClrBPEx(BPHandle = 0x00000008)  returns 0x00 (0000ms, 1575ms total)
T163C 002:236 JLINK_ReadReg(R0)  returns 0x00000000 (0000ms, 1575ms total)
T163C 002:237 JLINK_WriteMem(0x20000164, 0x0400 Bytes, ...) - Data: 01 D0 20 6A 00 B9 03 E0 D6 21 20 A0 03 F0 CE FD ... -- CPU_WriteMem(1024 bytes @ 0x20000164)  returns 0x400 (0006ms, 1581ms total)
T163C 002:243 JLINK_WriteReg(R0, 0x08001000)  returns 0x00 (0000ms, 1581ms total)
T163C 002:243 JLINK_WriteReg(R1, 0x00000400)  returns 0x00 (0000ms, 1581ms total)
T163C 002:243 JLINK_WriteReg(R2, 0x20000164)  returns 0x00 (0000ms, 1581ms total)
T163C 002:243 JLINK_WriteReg(R3, 0x00000000)  returns 0x00 (0000ms, 1581ms total)
T163C 002:243 JLINK_WriteReg(R4, 0x00000000)  returns 0x00 (0000ms, 1581ms total)
T163C 002:244 JLINK_WriteReg(R5, 0x00000000)  returns 0x00 (0000ms, 1581ms total)
T163C 002:244 JLINK_WriteReg(R6, 0x00000000)  returns 0x00 (0000ms, 1581ms total)
T163C 002:244 JLINK_WriteReg(R7, 0x00000000)  returns 0x00 (0000ms, 1581ms total)
T163C 002:244 JLINK_WriteReg(R8, 0x00000000)  returns 0x00 (0000ms, 1581ms total)
T163C 002:244 JLINK_WriteReg(R9, 0x20000160)  returns 0x00 (0000ms, 1581ms total)
T163C 002:244 JLINK_WriteReg(R10, 0x00000000)  returns 0x00 (0000ms, 1581ms total)
T163C 002:244 JLINK_WriteReg(R11, 0x00000000)  returns 0x00 (0000ms, 1581ms total)
T163C 002:244 JLINK_WriteReg(R12, 0x00000000)  returns 0x00 (0000ms, 1581ms total)
T163C 002:244 JLINK_WriteReg(R13 (SP), 0x20001000)  returns 0x00 (0000ms, 1581ms total)
T163C 002:244 JLINK_WriteReg(R14, 0x20000001)  returns 0x00 (0000ms, 1581ms total)
T163C 002:244 JLINK_WriteReg(R15 (PC), 0x200000F4)  returns 0x00 (0000ms, 1581ms total)
T163C 002:244 JLINK_WriteReg(XPSR, 0x01000000)  returns 0x00 (0000ms, 1581ms total)
T163C 002:244 JLINK_WriteReg(MSP, 0x20001000)  returns 0x00 (0000ms, 1581ms total)
T163C 002:244 JLINK_WriteReg(PSP, 0x20001000)  returns 0x00 (0000ms, 1581ms total)
T163C 002:244 JLINK_WriteReg(CFBP, 0x00000000)  returns 0x00 (0000ms, 1581ms total)
T163C 002:244 JLINK_SetBPEx(Addr = 0x20000000, Type = 0xFFFFFFF2)  returns 0x00000009 (0001ms, 1582ms total)
T163C 002:245 JLINK_Go() -- CPU_ReadMem(4 bytes @ 0xE0001000) (0013ms, 1595ms total)
T163C 002:258 JLINK_IsHalted()  returns FALSE (0005ms, 1600ms total)
T163C 002:265 JLINK_IsHalted()  returns FALSE (0005ms, 1600ms total)
T163C 002:271 JLINK_IsHalted()  returns FALSE (0005ms, 1600ms total)
T163C 002:277 JLINK_IsHalted()  returns FALSE (0005ms, 1600ms total)
T163C 002:283 JLINK_IsHalted()  returns FALSE (0005ms, 1600ms total)
T163C 002:289 JLINK_IsHalted() -- CPU_ReadMem(2 bytes @ 0x20000000)  returns TRUE (0014ms, 1609ms total)
T163C 002:303 JLINK_ReadReg(R15 (PC))  returns 0x20000000 (0000ms, 1595ms total)
T163C 002:303 JLINK_ClrBPEx(BPHandle = 0x00000009)  returns 0x00 (0000ms, 1595ms total)
T163C 002:303 JLINK_ReadReg(R0)  returns 0x00000000 (0000ms, 1595ms total)
T163C 002:304 JLINK_WriteMem(0x20000164, 0x0400 Bytes, ...) - Data: 28 60 70 BD 4C 69 62 72 61 72 69 65 73 5C 53 54 ... -- CPU_WriteMem(1024 bytes @ 0x20000164)  returns 0x400 (0007ms, 1602ms total)
T163C 002:311 JLINK_WriteReg(R0, 0x08001400)  returns 0x00 (0000ms, 1602ms total)
T163C 002:311 JLINK_WriteReg(R1, 0x00000400)  returns 0x00 (0000ms, 1602ms total)
T163C 002:311 JLINK_WriteReg(R2, 0x20000164)  returns 0x00 (0000ms, 1602ms total)
T163C 002:311 JLINK_WriteReg(R3, 0x00000000)  returns 0x00 (0000ms, 1602ms total)
T163C 002:311 JLINK_WriteReg(R4, 0x00000000)  returns 0x00 (0000ms, 1602ms total)
T163C 002:311 JLINK_WriteReg(R5, 0x00000000)  returns 0x00 (0000ms, 1602ms total)
T163C 002:311 JLINK_WriteReg(R6, 0x00000000)  returns 0x00 (0000ms, 1602ms total)
T163C 002:311 JLINK_WriteReg(R7, 0x00000000)  returns 0x00 (0000ms, 1602ms total)
T163C 002:311 JLINK_WriteReg(R8, 0x00000000)  returns 0x00 (0000ms, 1602ms total)
T163C 002:311 JLINK_WriteReg(R9, 0x20000160)  returns 0x00 (0000ms, 1602ms total)
T163C 002:311 JLINK_WriteReg(R10, 0x00000000)  returns 0x00 (0001ms, 1603ms total)
T163C 002:312 JLINK_WriteReg(R11, 0x00000000)  returns 0x00 (0000ms, 1603ms total)
T163C 002:312 JLINK_WriteReg(R12, 0x00000000)  returns 0x00 (0000ms, 1603ms total)
T163C 002:312 JLINK_WriteReg(R13 (SP), 0x20001000)  returns 0x00 (0000ms, 1603ms total)
T163C 002:312 JLINK_WriteReg(R14, 0x20000001)  returns 0x00 (0000ms, 1603ms total)
T163C 002:312 JLINK_WriteReg(R15 (PC), 0x200000F4)  returns 0x00 (0000ms, 1603ms total)
T163C 002:312 JLINK_WriteReg(XPSR, 0x01000000)  returns 0x00 (0000ms, 1603ms total)
T163C 002:312 JLINK_WriteReg(MSP, 0x20001000)  returns 0x00 (0000ms, 1603ms total)
T163C 002:312 JLINK_WriteReg(PSP, 0x20001000)  returns 0x00 (0000ms, 1603ms total)
T163C 002:312 JLINK_WriteReg(CFBP, 0x00000000)  returns 0x00 (0000ms, 1603ms total)
T163C 002:312 JLINK_SetBPEx(Addr = 0x20000000, Type = 0xFFFFFFF2)  returns 0x0000000A (0000ms, 1603ms total)
T163C 002:312 JLINK_Go() -- CPU_ReadMem(4 bytes @ 0xE0001000) (0015ms, 1618ms total)
T163C 002:327 JLINK_IsHalted()  returns FALSE (0004ms, 1622ms total)
T163C 002:338 JLINK_IsHalted()  returns FALSE (0004ms, 1622ms total)
T163C 002:343 JLINK_IsHalted()  returns FALSE (0004ms, 1622ms total)
T163C 002:348 JLINK_IsHalted()  returns FALSE (0005ms, 1623ms total)
T163C 002:355 JLINK_IsHalted() -- CPU_ReadMem(2 bytes @ 0x20000000)  returns TRUE (0014ms, 1632ms total)
T163C 002:369 JLINK_ReadReg(R15 (PC))  returns 0x20000000 (0000ms, 1618ms total)
T163C 002:369 JLINK_ClrBPEx(BPHandle = 0x0000000A)  returns 0x00 (0000ms, 1618ms total)
T163C 002:369 JLINK_ReadReg(R0)  returns 0x00000000 (0000ms, 1618ms total)
T163C 002:370 JLINK_WriteMem(0x20000164, 0x0400 Bytes, ...) - Data: 20 1F 46 D0 4F EA F0 30 84 42 42 D0 51 48 84 42 ... -- CPU_WriteMem(1024 bytes @ 0x20000164)  returns 0x400 (0007ms, 1625ms total)
T163C 002:377 JLINK_WriteReg(R0, 0x08001800)  returns 0x00 (0000ms, 1625ms total)
T163C 002:377 JLINK_WriteReg(R1, 0x00000400)  returns 0x00 (0000ms, 1625ms total)
T163C 002:377 JLINK_WriteReg(R2, 0x20000164)  returns 0x00 (0000ms, 1625ms total)
T163C 002:377 JLINK_WriteReg(R3, 0x00000000)  returns 0x00 (0000ms, 1625ms total)
T163C 002:377 JLINK_WriteReg(R4, 0x00000000)  returns 0x00 (0000ms, 1625ms total)
T163C 002:377 JLINK_WriteReg(R5, 0x00000000)  returns 0x00 (0000ms, 1625ms total)
T163C 002:377 JLINK_WriteReg(R6, 0x00000000)  returns 0x00 (0000ms, 1625ms total)
T163C 002:377 JLINK_WriteReg(R7, 0x00000000)  returns 0x00 (0000ms, 1625ms total)
T163C 002:377 JLINK_WriteReg(R8, 0x00000000)  returns 0x00 (0000ms, 1625ms total)
T163C 002:377 JLINK_WriteReg(R9, 0x20000160)  returns 0x00 (0000ms, 1625ms total)
T163C 002:377 JLINK_WriteReg(R10, 0x00000000)  returns 0x00 (0001ms, 1626ms total)
T163C 002:378 JLINK_WriteReg(R11, 0x00000000)  returns 0x00 (0000ms, 1626ms total)
T163C 002:378 JLINK_WriteReg(R12, 0x00000000)  returns 0x00 (0000ms, 1626ms total)
T163C 002:378 JLINK_WriteReg(R13 (SP), 0x20001000)  returns 0x00 (0000ms, 1626ms total)
T163C 002:378 JLINK_WriteReg(R14, 0x20000001)  returns 0x00 (0000ms, 1626ms total)
T163C 002:378 JLINK_WriteReg(R15 (PC), 0x200000F4)  returns 0x00 (0000ms, 1626ms total)
T163C 002:378 JLINK_WriteReg(XPSR, 0x01000000)  returns 0x00 (0000ms, 1626ms total)
T163C 002:378 JLINK_WriteReg(MSP, 0x20001000)  returns 0x00 (0000ms, 1626ms total)
T163C 002:378 JLINK_WriteReg(PSP, 0x20001000)  returns 0x00 (0000ms, 1626ms total)
T163C 002:378 JLINK_WriteReg(CFBP, 0x00000000)  returns 0x00 (0000ms, 1626ms total)
T163C 002:378 JLINK_SetBPEx(Addr = 0x20000000, Type = 0xFFFFFFF2)  returns 0x0000000B (0000ms, 1626ms total)
T163C 002:378 JLINK_Go() -- CPU_ReadMem(4 bytes @ 0xE0001000) (0014ms, 1640ms total)
T163C 002:392 JLINK_IsHalted()  returns FALSE (0005ms, 1645ms total)
T163C 002:398 JLINK_IsHalted()  returns FALSE (0005ms, 1645ms total)
T163C 002:404 JLINK_IsHalted()  returns FALSE (0004ms, 1644ms total)
T163C 002:409 JLINK_IsHalted()  returns FALSE (0004ms, 1644ms total)
T163C 002:418 JLINK_IsHalted()  returns FALSE (0004ms, 1644ms total)
T163C 002:423 JLINK_IsHalted() -- CPU_ReadMem(2 bytes @ 0x20000000)  returns TRUE (0014ms, 1654ms total)
T163C 002:437 JLINK_ReadReg(R15 (PC))  returns 0x20000000 (0000ms, 1640ms total)
T163C 002:437 JLINK_ClrBPEx(BPHandle = 0x0000000B)  returns 0x00 (0000ms, 1640ms total)
T163C 002:437 JLINK_ReadReg(R0)  returns 0x00000000 (0000ms, 1640ms total)
T163C 002:438 JLINK_WriteMem(0x20000164, 0x0400 Bytes, ...) - Data: 70 69 6F 2E 63 00 00 00 70 B5 04 46 0D 46 13 48 ... -- CPU_WriteMem(1024 bytes @ 0x20000164)  returns 0x400 (0006ms, 1646ms total)
T163C 002:445 JLINK_WriteReg(R0, 0x08001C00)  returns 0x00 (0004ms, 1651ms total)
T163C 002:449 JLINK_WriteReg(R1, 0x00000400)  returns 0x00 (0000ms, 1651ms total)
T163C 002:449 JLINK_WriteReg(R2, 0x20000164)  returns 0x00 (0000ms, 1651ms total)
T163C 002:449 JLINK_WriteReg(R3, 0x00000000)  returns 0x00 (0000ms, 1651ms total)
T163C 002:449 JLINK_WriteReg(R4, 0x00000000)  returns 0x00 (0000ms, 1651ms total)
T163C 002:449 JLINK_WriteReg(R5, 0x00000000)  returns 0x00 (0000ms, 1651ms total)
T163C 002:449 JLINK_WriteReg(R6, 0x00000000)  returns 0x00 (0000ms, 1651ms total)
T163C 002:449 JLINK_WriteReg(R7, 0x00000000)  returns 0x00 (0000ms, 1651ms total)
T163C 002:449 JLINK_WriteReg(R8, 0x00000000)  returns 0x00 (0000ms, 1651ms total)
T163C 002:449 JLINK_WriteReg(R9, 0x20000160)  returns 0x00 (0000ms, 1651ms total)
T163C 002:449 JLINK_WriteReg(R10, 0x00000000)  returns 0x00 (0000ms, 1651ms total)
T163C 002:449 JLINK_WriteReg(R11, 0x00000000)  returns 0x00 (0000ms, 1651ms total)
T163C 002:449 JLINK_WriteReg(R12, 0x00000000)  returns 0x00 (0000ms, 1651ms total)
T163C 002:449 JLINK_WriteReg(R13 (SP), 0x20001000)  returns 0x00 (0000ms, 1651ms total)
T163C 002:449 JLINK_WriteReg(R14, 0x20000001)  returns 0x00 (0000ms, 1651ms total)
T163C 002:450 JLINK_WriteReg(R15 (PC), 0x200000F4)  returns 0x00 (0000ms, 1652ms total)
T163C 002:450 JLINK_WriteReg(XPSR, 0x01000000)  returns 0x00 (0000ms, 1652ms total)
T163C 002:450 JLINK_WriteReg(MSP, 0x20001000)  returns 0x00 (0000ms, 1652ms total)
T163C 002:450 JLINK_WriteReg(PSP, 0x20001000)  returns 0x00 (0000ms, 1652ms total)
T163C 002:450 JLINK_WriteReg(CFBP, 0x00000000)  returns 0x00 (0000ms, 1652ms total)
T163C 002:450 JLINK_SetBPEx(Addr = 0x20000000, Type = 0xFFFFFFF2)  returns 0x0000000C (0000ms, 1652ms total)
T163C 002:450 JLINK_Go() -- CPU_ReadMem(4 bytes @ 0xE0001000) (0014ms, 1666ms total)
T163C 002:464 JLINK_IsHalted()  returns FALSE (0005ms, 1671ms total)
T163C 002:474 JLINK_IsHalted()  returns FALSE (0005ms, 1671ms total)
T163C 002:480 JLINK_IsHalted()  returns FALSE (0004ms, 1670ms total)
T163C 002:485 JLINK_IsHalted()  returns FALSE (0005ms, 1671ms total)
T163C 002:491 JLINK_IsHalted() -- CPU_ReadMem(2 bytes @ 0x20000000)  returns TRUE (0015ms, 1681ms total)
T163C 002:506 JLINK_ReadReg(R15 (PC))  returns 0x20000000 (0000ms, 1666ms total)
T163C 002:506 JLINK_ClrBPEx(BPHandle = 0x0000000C)  returns 0x00 (0000ms, 1666ms total)
T163C 002:506 JLINK_ReadReg(R0)  returns 0x00000000 (0000ms, 1666ms total)
T163C 002:507 JLINK_WriteMem(0x20000164, 0x0400 Bytes, ...) - Data: 02 F0 D4 FD 60 78 10 28 00 DA 03 E0 76 21 1D A0 ... -- CPU_WriteMem(1024 bytes @ 0x20000164)  returns 0x400 (0007ms, 1673ms total)
T163C 002:514 JLINK_WriteReg(R0, 0x08002000)  returns 0x00 (0000ms, 1673ms total)
T163C 002:514 JLINK_WriteReg(R1, 0x00000400)  returns 0x00 (0000ms, 1673ms total)
T163C 002:514 JLINK_WriteReg(R2, 0x20000164)  returns 0x00 (0001ms, 1674ms total)
T163C 002:515 JLINK_WriteReg(R3, 0x00000000)  returns 0x00 (0000ms, 1674ms total)
T163C 002:515 JLINK_WriteReg(R4, 0x00000000)  returns 0x00 (0000ms, 1674ms total)
T163C 002:515 JLINK_WriteReg(R5, 0x00000000)  returns 0x00 (0000ms, 1674ms total)
T163C 002:515 JLINK_WriteReg(R6, 0x00000000)  returns 0x00 (0000ms, 1674ms total)
T163C 002:515 JLINK_WriteReg(R7, 0x00000000)  returns 0x00 (0000ms, 1674ms total)
T163C 002:515 JLINK_WriteReg(R8, 0x00000000)  returns 0x00 (0000ms, 1674ms total)
T163C 002:515 JLINK_WriteReg(R9, 0x20000160)  returns 0x00 (0000ms, 1674ms total)
T163C 002:515 JLINK_WriteReg(R10, 0x00000000)  returns 0x00 (0000ms, 1674ms total)
T163C 002:515 JLINK_WriteReg(R11, 0x00000000)  returns 0x00 (0000ms, 1674ms total)
T163C 002:515 JLINK_WriteReg(R12, 0x00000000)  returns 0x00 (0000ms, 1674ms total)
T163C 002:515 JLINK_WriteReg(R13 (SP), 0x20001000)  returns 0x00 (0000ms, 1674ms total)
T163C 002:515 JLINK_WriteReg(R14, 0x20000001)  returns 0x00 (0000ms, 1674ms total)
T163C 002:515 JLINK_WriteReg(R15 (PC), 0x200000F4)  returns 0x00 (0000ms, 1674ms total)
T163C 002:515 JLINK_WriteReg(XPSR, 0x01000000)  returns 0x00 (0000ms, 1674ms total)
T163C 002:515 JLINK_WriteReg(MSP, 0x20001000)  returns 0x00 (0000ms, 1674ms total)
T163C 002:515 JLINK_WriteReg(PSP, 0x20001000)  returns 0x00 (0001ms, 1675ms total)
T163C 002:516 JLINK_WriteReg(CFBP, 0x00000000)  returns 0x00 (0000ms, 1675ms total)
T163C 002:516 JLINK_SetBPEx(Addr = 0x20000000, Type = 0xFFFFFFF2)  returns 0x0000000D (0000ms, 1675ms total)
T163C 002:516 JLINK_Go() -- CPU_ReadMem(4 bytes @ 0xE0001000) (0015ms, 1690ms total)
T163C 002:531 JLINK_IsHalted()  returns FALSE (0004ms, 1694ms total)
T163C 002:544 JLINK_IsHalted()  returns FALSE (0004ms, 1694ms total)
T163C 002:549 JLINK_IsHalted()  returns FALSE (0004ms, 1694ms total)
T163C 002:554 JLINK_IsHalted()  returns FALSE (0005ms, 1695ms total)
T163C 002:560 JLINK_IsHalted() -- CPU_ReadMem(2 bytes @ 0x20000000)  returns TRUE (0013ms, 1703ms total)
T163C 002:574 JLINK_ReadReg(R15 (PC))  returns 0x20000000 (0000ms, 1690ms total)
T163C 002:574 JLINK_ClrBPEx(BPHandle = 0x0000000D)  returns 0x00 (0000ms, 1690ms total)
T163C 002:574 JLINK_ReadReg(R0)  returns 0x00000000 (0000ms, 1690ms total)
T163C 002:574 JLINK_WriteMem(0x20000164, 0x0400 Bytes, ...) - Data: 05 F0 31 FE B9 FB F0 F0 0A 21 B0 FB F1 F2 01 FB ... -- CPU_WriteMem(1024 bytes @ 0x20000164)  returns 0x400 (0007ms, 1697ms total)
T163C 002:581 JLINK_WriteReg(R0, 0x08002400)  returns 0x00 (0000ms, 1697ms total)
T163C 002:581 JLINK_WriteReg(R1, 0x00000400)  returns 0x00 (0000ms, 1697ms total)
T163C 002:581 JLINK_WriteReg(R2, 0x20000164)  returns 0x00 (0000ms, 1697ms total)
T163C 002:581 JLINK_WriteReg(R3, 0x00000000)  returns 0x00 (0000ms, 1697ms total)
T163C 002:581 JLINK_WriteReg(R4, 0x00000000)  returns 0x00 (0000ms, 1697ms total)
T163C 002:581 JLINK_WriteReg(R5, 0x00000000)  returns 0x00 (0000ms, 1697ms total)
T163C 002:581 JLINK_WriteReg(R6, 0x00000000)  returns 0x00 (0000ms, 1697ms total)
T163C 002:581 JLINK_WriteReg(R7, 0x00000000)  returns 0x00 (0000ms, 1697ms total)
T163C 002:581 JLINK_WriteReg(R8, 0x00000000)  returns 0x00 (0000ms, 1697ms total)
T163C 002:581 JLINK_WriteReg(R9, 0x20000160)  returns 0x00 (0001ms, 1698ms total)
T163C 002:582 JLINK_WriteReg(R10, 0x00000000)  returns 0x00 (0000ms, 1698ms total)
T163C 002:582 JLINK_WriteReg(R11, 0x00000000)  returns 0x00 (0000ms, 1698ms total)
T163C 002:582 JLINK_WriteReg(R12, 0x00000000)  returns 0x00 (0000ms, 1698ms total)
T163C 002:582 JLINK_WriteReg(R13 (SP), 0x20001000)  returns 0x00 (0000ms, 1698ms total)
T163C 002:582 JLINK_WriteReg(R14, 0x20000001)  returns 0x00 (0000ms, 1698ms total)
T163C 002:582 JLINK_WriteReg(R15 (PC), 0x200000F4)  returns 0x00 (0000ms, 1698ms total)
T163C 002:582 JLINK_WriteReg(XPSR, 0x01000000)  returns 0x00 (0000ms, 1698ms total)
T163C 002:582 JLINK_WriteReg(MSP, 0x20001000)  returns 0x00 (0000ms, 1698ms total)
T163C 002:582 JLINK_WriteReg(PSP, 0x20001000)  returns 0x00 (0000ms, 1698ms total)
T163C 002:582 JLINK_WriteReg(CFBP, 0x00000000)  returns 0x00 (0000ms, 1698ms total)
T163C 002:582 JLINK_SetBPEx(Addr = 0x20000000, Type = 0xFFFFFFF2)  returns 0x0000000E (0000ms, 1698ms total)
T163C 002:582 JLINK_Go() -- CPU_ReadMem(4 bytes @ 0xE0001000) (0015ms, 1713ms total)
T163C 002:597 JLINK_IsHalted()  returns FALSE (0005ms, 1718ms total)
T163C 002:605 JLINK_IsHalted()  returns FALSE (0004ms, 1717ms total)
T163C 002:610 JLINK_IsHalted()  returns FALSE (0005ms, 1718ms total)
T163C 002:616 JLINK_IsHalted()  returns FALSE (0004ms, 1717ms total)
T163C 002:621 JLINK_IsHalted()  returns FALSE (0005ms, 1718ms total)
T163C 002:627 JLINK_IsHalted() -- CPU_ReadMem(2 bytes @ 0x20000000)  returns TRUE (0015ms, 1728ms total)
T163C 002:642 JLINK_ReadReg(R15 (PC))  returns 0x20000000 (0000ms, 1713ms total)
T163C 002:642 JLINK_ClrBPEx(BPHandle = 0x0000000E)  returns 0x00 (0000ms, 1713ms total)
T163C 002:642 JLINK_ReadReg(R0)  returns 0x00000000 (0000ms, 1713ms total)
T163C 002:642 JLINK_WriteMem(0x20000164, 0x0400 Bytes, ...) - Data: 16 98 0E 90 15 98 0D 90 14 98 0C 90 11 9C 0D A9 ... -- CPU_WriteMem(1024 bytes @ 0x20000164)  returns 0x400 (0007ms, 1720ms total)
T163C 002:649 JLINK_WriteReg(R0, 0x08002800)  returns 0x00 (0000ms, 1720ms total)
T163C 002:649 JLINK_WriteReg(R1, 0x00000400)  returns 0x00 (0000ms, 1720ms total)
T163C 002:649 JLINK_WriteReg(R2, 0x20000164)  returns 0x00 (0000ms, 1720ms total)
T163C 002:649 JLINK_WriteReg(R3, 0x00000000)  returns 0x00 (0000ms, 1720ms total)
T163C 002:649 JLINK_WriteReg(R4, 0x00000000)  returns 0x00 (0000ms, 1720ms total)
T163C 002:649 JLINK_WriteReg(R5, 0x00000000)  returns 0x00 (0000ms, 1720ms total)
T163C 002:649 JLINK_WriteReg(R6, 0x00000000)  returns 0x00 (0000ms, 1720ms total)
T163C 002:649 JLINK_WriteReg(R7, 0x00000000)  returns 0x00 (0000ms, 1720ms total)
T163C 002:649 JLINK_WriteReg(R8, 0x00000000)  returns 0x00 (0001ms, 1721ms total)
T163C 002:650 JLINK_WriteReg(R9, 0x20000160)  returns 0x00 (0000ms, 1721ms total)
T163C 002:650 JLINK_WriteReg(R10, 0x00000000)  returns 0x00 (0000ms, 1721ms total)
T163C 002:650 JLINK_WriteReg(R11, 0x00000000)  returns 0x00 (0000ms, 1721ms total)
T163C 002:650 JLINK_WriteReg(R12, 0x00000000)  returns 0x00 (0000ms, 1721ms total)
T163C 002:650 JLINK_WriteReg(R13 (SP), 0x20001000)  returns 0x00 (0000ms, 1721ms total)
T163C 002:650 JLINK_WriteReg(R14, 0x20000001)  returns 0x00 (0000ms, 1721ms total)
T163C 002:650 JLINK_WriteReg(R15 (PC), 0x200000F4)  returns 0x00 (0000ms, 1721ms total)
T163C 002:650 JLINK_WriteReg(XPSR, 0x01000000)  returns 0x00 (0000ms, 1721ms total)
T163C 002:650 JLINK_WriteReg(MSP, 0x20001000)  returns 0x00 (0000ms, 1721ms total)
T163C 002:650 JLINK_WriteReg(PSP, 0x20001000)  returns 0x00 (0000ms, 1721ms total)
T163C 002:650 JLINK_WriteReg(CFBP, 0x00000000)  returns 0x00 (0000ms, 1721ms total)
T163C 002:650 JLINK_SetBPEx(Addr = 0x20000000, Type = 0xFFFFFFF2)  returns 0x0000000F (0000ms, 1721ms total)
T163C 002:650 JLINK_Go() -- CPU_ReadMem(4 bytes @ 0xE0001000) (0015ms, 1736ms total)
T163C 002:665 JLINK_IsHalted()  returns FALSE (0005ms, 1741ms total)
T163C 002:683 JLINK_IsHalted()  returns FALSE (0005ms, 1741ms total)
T163C 002:689 JLINK_IsHalted()  returns FALSE (0005ms, 1741ms total)
T163C 002:695 JLINK_IsHalted() -- CPU_ReadMem(2 bytes @ 0x20000000)  returns TRUE (0014ms, 1750ms total)
T163C 002:710 JLINK_ReadReg(R15 (PC))  returns 0x20000000 (0000ms, 1736ms total)
T163C 002:710 JLINK_ClrBPEx(BPHandle = 0x0000000F)  returns 0x00 (0000ms, 1736ms total)
T163C 002:710 JLINK_ReadReg(R0)  returns 0x00000000 (0000ms, 1736ms total)
T163C 002:710 JLINK_WriteMem(0x20000164, 0x0400 Bytes, ...) - Data: 04 1C 70 47 9C 1C 00 20 0B 48 00 68 00 78 0A 49 ... -- CPU_WriteMem(1024 bytes @ 0x20000164)  returns 0x400 (0007ms, 1743ms total)
T163C 002:717 JLINK_WriteReg(R0, 0x08002C00)  returns 0x00 (0000ms, 1743ms total)
T163C 002:717 JLINK_WriteReg(R1, 0x00000400)  returns 0x00 (0000ms, 1743ms total)
T163C 002:717 JLINK_WriteReg(R2, 0x20000164)  returns 0x00 (0000ms, 1743ms total)
T163C 002:717 JLINK_WriteReg(R3, 0x00000000)  returns 0x00 (0000ms, 1743ms total)
T163C 002:717 JLINK_WriteReg(R4, 0x00000000)  returns 0x00 (0000ms, 1743ms total)
T163C 002:717 JLINK_WriteReg(R5, 0x00000000)  returns 0x00 (0000ms, 1743ms total)
T163C 002:717 JLINK_WriteReg(R6, 0x00000000)  returns 0x00 (0000ms, 1743ms total)
T163C 002:717 JLINK_WriteReg(R7, 0x00000000)  returns 0x00 (0001ms, 1744ms total)
T163C 002:718 JLINK_WriteReg(R8, 0x00000000)  returns 0x00 (0000ms, 1744ms total)
T163C 002:718 JLINK_WriteReg(R9, 0x20000160)  returns 0x00 (0000ms, 1744ms total)
T163C 002:718 JLINK_WriteReg(R10, 0x00000000)  returns 0x00 (0000ms, 1744ms total)
T163C 002:718 JLINK_WriteReg(R11, 0x00000000)  returns 0x00 (0000ms, 1744ms total)
